CITIFILE A.01.01
#Momentum: B.12.00.024 (*) built: Jan 14 2016 
#Momentum Date and Time: Fri Jun 12 03:49:06 2020

NAME PortSet1/TwoP0_Dsolver_data/first_odd_mode_is_1/most_even_mode_is_1/PMLG4/LS0


CONSTANT NBR_OF_PORTS 2

VAR freq MAG 20

DATA GAMMA_1[1] RI
DATA Z0_1[1,1] RI
DATA LAMBADAI_1[1,1] RI
DATA Zcir_1[1,1] RI
DATA Ycir_1[1,1] RI

VAR_LIST_BEGIN
	 3816246.824
	 3854409.292
	 3892571.76
	 3930734.229
	 7293246.899
	 14436220
	 22344646.81
	 32134114.05
	 48277881.99
	 76640781.57
	 121355240.9
	 187925011.8
	 288937114.7
	 446758930.1
	 693673817.2
	 1074845790
	 1657729564
	 2543798126
	 3876167456
	 5000000000
VAR_LIST_END

BEGIN
	 0.0008846954733,	 0.1474472102
	 0.0008935783455,	 0.1489160215
	 0.0009024615594,	 0.1503847768
	 0.0009113451149,	 0.1518534767
	 0.00169513774,	 0.2810890057
	 0.0033644489,	 0.5549261683
	 0.005216570847,	 0.8574764991
	 0.007512835687,	 1.231413753
	 0.01130552471,	 1.8471419
	 0.01798097231,	 2.927073962
	 0.02852607083,	 4.626600347
	 0.04425948074,	 7.15262467
	 0.06819411631,	 10.97986392
	 0.1057188141,	 16.95204059
	 0.1647370781,	 26.28818959
	 0.2566382784,	 40.70268084
	 0.399225312,	 62.78540451
	 0.6211670576,	 96.5112127
	 0.9671054507,	 147.6801999
	 1.2699008975969783 ,	 191.30772253059109 
END
BEGIN
	 49.89269989801106 ,	 0.2993642998747798 
	 49.89459628214491 ,	 0.29939909345823024 
	 49.896474196095213 ,	 0.29943354650396692 
	 49.898333997903606 ,	 0.29946766462269353 
	 50.01659405948071 ,	 0.301634637119152 
	 50.148199533484338 ,	 0.3040464156954123 
	 50.232937949940435 ,	 0.30560277135398589 
	 50.303728517558099 ,	 0.30690636772095203 
	 50.383361245280057 ,	 0.30837803055039181 
	 50.474150881816591 ,	 0.310066103036792 
	 50.564762030422003 ,	 0.31176948604974497 
	 50.651177648465769 ,	 0.31342654978666235 
	 50.736273632182161 ,	 0.31511792537805772 
	 50.822704264714162 ,	 0.31694998138881358 
	 50.911281437117516 ,	 0.31903814235321359 
	 51.005159542897971 ,	 0.32158705539124727 
	 51.117425938164196 ,	 0.32500110493838935 
	 51.284865739250684 ,	 0.32998989461849237 
	 51.594129342054877 ,	 0.33763960090797135 
	 51.926737738363535 ,	 0.34428719251673934 
END
BEGIN
	 0.0008846954733,	 0.1474472102
	 0.0008935783455,	 0.1489160215
	 0.0009024615594,	 0.1503847768
	 0.0009113451149,	 0.1518534767
	 0.00169513774,	 0.2810890057
	 0.0033644489,	 0.5549261683
	 0.005216570847,	 0.8574764991
	 0.007512835687,	 1.231413753
	 0.01130552471,	 1.8471419
	 0.01798097231,	 2.927073962
	 0.02852607083,	 4.626600347
	 0.04425948074,	 7.15262467
	 0.06819411631,	 10.97986392
	 0.1057188141,	 16.95204059
	 0.1647370781,	 26.28818959
	 0.2566382784,	 40.70268084
	 0.399225312,	 62.78540451
	 0.6211670576,	 96.5112127
	 0.9671054507,	 147.6801999
	 1.2699008975969783 ,	 191.30772253059106 
END
BEGIN
	 -1.55312543093078e-009 ,	 8.14408408105619e-010 
	 -1.568892180653e-009 ,	 8.14408409224441e-010 
	 -1.58508958430083e-009 ,	 8.1440841035205e-010 
	 -1.600865094092e-009 ,	 8.1440841147788e-010 
	 -3.0898252900756e-009 ,	 8.14408609292939e-010 
	 -5.99284508720184e-009 ,	 8.14408928292683e-010 
	 -9.32983489955203e-009 ,	 8.14409606990848e-010 
	 -1.34723233552198e-008 ,	 8.14410781082775e-010 
	 -2.0295066171681e-008 ,	 8.14413494524927e-010 
	 -3.21376167579032e-008 ,	 8.14420478516246e-010 
	 -4.99802518573456e-008 ,	 8.14436878132883e-010 
	 -7.33962439002783e-008 ,	 8.14472696327534e-010 
	 -9.71354879898689e-008 ,	 8.14551315018115e-010 
	 -8.73956775230417e-008 ,	 8.14728494277779e-010 
	 1.07703552746502e-007 ,	 8.15128282922043e-010 
	 1.11765677859171e-006 ,	 8.16014232705239e-010 
	 5.42690261757378e-006 ,	 8.17939254047579e-010 
	 2.32108741876624e-005 ,	 8.22037900940142e-010 
	 9.09933559991305e-005 ,	 8.30478022231429e-010 
	 0.000204422508187641 ,	 8.39386835569734e-010 
END
BEGIN
	 0.01335994487,	 4.642827914e-008
	 0.01349357376,	 4.642474922e-008
	 0.01362720273,	 4.642125407e-008
	 0.01376083176,	 4.641779302e-008
	 0.02553516618,	 4.619851316e-008
	 0.0505482537,	 4.595631516e-008
	 0.07824272965,	 4.580140118e-008
	 0.1125255356,	 4.567261954e-008
	 0.1690638891,	 4.55284782e-008
	 0.2684054206,	 4.536518973e-008
	 0.4250508968,	 4.520362056e-008
	 0.6583600053,	 4.505145315e-008
	 1.0126853017315256 ,	 4.4904753086743216e-008 
	 1.5672546845451631 ,	 4.4761841954751305e-008 
	 2.437922239954478 ,	 4.46280589263292e-008 
	 3.7909119504198565 ,	 4.4512191284530391e-008 
	 5.8839694043821735 ,	 4.4421342955162289e-008 
	 9.1243561242594335 ,	 4.4352765062604862e-008 
	 14.11777834071842 ,	 4.4272393429668511e-008 
	 18.414784767298258 ,	 4.4175758178957819e-008 
END
CITIFILE A.01.01
NAME PortSet2/TwoP0_Dsolver_data/first_odd_mode_is_1/most_even_mode_is_1/PMLG4/LS0

VAR freq MAG 20

DATA GAMMA_1[1] RI
DATA Z0_1[1,1] RI
DATA LAMBADAI_1[1,1] RI
DATA Zcir_1[1,1] RI
DATA Ycir_1[1,1] RI

VAR_LIST_BEGIN
	 3816246.824
	 3854409.292
	 3892571.76
	 3930734.229
	 7293246.899
	 14436220
	 22344646.81
	 32134114.05
	 48277881.99
	 76640781.57
	 121355240.9
	 187925011.8
	 288937114.7
	 446758930.1
	 693673817.2
	 1074845790
	 1657729564
	 2543798126
	 3876167456
	 5000000000
VAR_LIST_END

BEGIN
	 0.0008846954733,	 0.1474472102
	 0.0008935783455,	 0.1489160215
	 0.0009024615594,	 0.1503847768
	 0.0009113451149,	 0.1518534767
	 0.00169513774,	 0.2810890057
	 0.0033644489,	 0.5549261683
	 0.005216570847,	 0.8574764991
	 0.007512835687,	 1.231413753
	 0.01130552471,	 1.8471419
	 0.01798097231,	 2.927073962
	 0.02852607083,	 4.626600347
	 0.04425948074,	 7.15262467
	 0.06819411631,	 10.97986392
	 0.1057188141,	 16.95204059
	 0.1647370781,	 26.28818959
	 0.2566382784,	 40.70268084
	 0.399225312,	 62.78540451
	 0.6211670576,	 96.5112127
	 0.9671054507,	 147.6801999
	 1.2699008975969783 ,	 191.30772253059109 
END
BEGIN
	 49.89269989801106 ,	 0.2993642998747798 
	 49.89459628214491 ,	 0.29939909345823024 
	 49.896474196095213 ,	 0.29943354650396692 
	 49.898333997903606 ,	 0.29946766462269353 
	 50.01659405948071 ,	 0.301634637119152 
	 50.148199533484338 ,	 0.3040464156954123 
	 50.232937949940435 ,	 0.30560277135398589 
	 50.303728517558099 ,	 0.30690636772095203 
	 50.383361245280057 ,	 0.30837803055039181 
	 50.474150881816591 ,	 0.310066103036792 
	 50.564762030422003 ,	 0.31176948604974497 
	 50.651177648465769 ,	 0.31342654978666235 
	 50.736273632182161 ,	 0.31511792537805772 
	 50.822704264714162 ,	 0.31694998138881358 
	 50.911281437117516 ,	 0.31903814235321359 
	 51.005159542897971 ,	 0.32158705539124727 
	 51.117425938164196 ,	 0.32500110493838935 
	 51.284865739250684 ,	 0.32998989461849237 
	 51.594129342054877 ,	 0.33763960090797135 
	 51.926737738363535 ,	 0.34428719251673934 
END
BEGIN
	 0.0008846954733,	 0.1474472102
	 0.0008935783455,	 0.1489160215
	 0.0009024615594,	 0.1503847768
	 0.0009113451149,	 0.1518534767
	 0.00169513774,	 0.2810890057
	 0.0033644489,	 0.5549261683
	 0.005216570847,	 0.8574764991
	 0.007512835687,	 1.231413753
	 0.01130552471,	 1.8471419
	 0.01798097231,	 2.927073962
	 0.02852607083,	 4.626600347
	 0.04425948074,	 7.15262467
	 0.06819411631,	 10.97986392
	 0.1057188141,	 16.95204059
	 0.1647370781,	 26.28818959
	 0.2566382784,	 40.70268084
	 0.399225312,	 62.78540451
	 0.6211670576,	 96.5112127
	 0.9671054507,	 147.6801999
	 1.2699008975969783 ,	 191.30772253059106 
END
BEGIN
	 -1.55312543093078e-009 ,	 8.14408408105619e-010 
	 -1.568892180653e-009 ,	 8.14408409224441e-010 
	 -1.58508958430083e-009 ,	 8.1440841035205e-010 
	 -1.600865094092e-009 ,	 8.1440841147788e-010 
	 -3.0898252900756e-009 ,	 8.14408609292939e-010 
	 -5.99284508720184e-009 ,	 8.14408928292683e-010 
	 -9.32983489955203e-009 ,	 8.14409606990848e-010 
	 -1.34723233552198e-008 ,	 8.14410781082775e-010 
	 -2.0295066171681e-008 ,	 8.14413494524927e-010 
	 -3.21376167579032e-008 ,	 8.14420478516246e-010 
	 -4.99802518573456e-008 ,	 8.14436878132883e-010 
	 -7.33962439002783e-008 ,	 8.14472696327534e-010 
	 -9.71354879898689e-008 ,	 8.14551315018115e-010 
	 -8.73956775230417e-008 ,	 8.14728494277779e-010 
	 1.07703552746502e-007 ,	 8.15128282922043e-010 
	 1.11765677859171e-006 ,	 8.16014232705239e-010 
	 5.42690261757378e-006 ,	 8.17939254047579e-010 
	 2.32108741876624e-005 ,	 8.22037900940142e-010 
	 9.09933559991305e-005 ,	 8.30478022231429e-010 
	 0.000204422508187641 ,	 8.39386835569734e-010 
END
BEGIN
	 0.01335994487,	 4.642827914e-008
	 0.01349357376,	 4.642474922e-008
	 0.01362720273,	 4.642125407e-008
	 0.01376083176,	 4.641779302e-008
	 0.02553516618,	 4.619851316e-008
	 0.0505482537,	 4.595631516e-008
	 0.07824272965,	 4.580140118e-008
	 0.1125255356,	 4.567261954e-008
	 0.1690638891,	 4.55284782e-008
	 0.2684054206,	 4.536518973e-008
	 0.4250508968,	 4.520362056e-008
	 0.6583600053,	 4.505145315e-008
	 1.0126853017315256 ,	 4.4904753086743216e-008 
	 1.5672546845451631 ,	 4.4761841954751305e-008 
	 2.437922239954478 ,	 4.46280589263292e-008 
	 3.7909119504198565 ,	 4.4512191284530391e-008 
	 5.8839694043821735 ,	 4.4421342955162289e-008 
	 9.1243561242594335 ,	 4.4352765062604862e-008 
	 14.11777834071842 ,	 4.4272393429668511e-008 
	 18.414784767298258 ,	 4.4175758178957819e-008 
END
